
**** 03/09/21 11:09:14 *********** Evaluation PSpice (Nov 1999) **************

 * C:\Users\Gustavo\Downloads\UFRN2SEASON\emg_pspice\band_pass_filter.sch


 ****     CIRCUIT DESCRIPTION


******************************************************************************




* Schematics Version 9.1 - Web Update 1
* Tue Mar 09 11:08:56 2021



** Analysis setup **
.tran 0ns 100ms 0 1m
.OP 


* From [PSPICE NETLIST] section of pspiceev.ini:
.lib "nom.lib"

.INC "band_pass_filter.net"

**** INCLUDING band_pass_filter.net ****
* Schematics Netlist *



R_R4         $N_0002 $N_0001  1k  
C_C2         $N_0001 $N_0003  330n  
R_R1         0 $N_0004  18k  
R_R2         $N_0004 $N_0003  10k  
X_U1A         $N_0001 $N_0004 $N_0005 $N_0006 $N_0003 LM324
V_V3         0 $N_0006 DC 5  
V_V2         $N_0005 0 DC 5  
C_C1         0 $N_0001  330n  
R_R5         $N_0007 $N_0002  1k  
V_V1         $N_0007 0  
+SIN 0 0.5 100 0 0 0

**** RESUMING band_pass_filter.cir ****
.INC "band_pass_filter.als"



**** INCLUDING band_pass_filter.als ****
* Schematics Aliases *

.ALIASES
R_R4            R4(1=$N_0002 2=$N_0001 )
C_C2            C2(1=$N_0001 2=$N_0003 )
R_R1            R1(1=0 2=$N_0004 )
R_R2            R2(1=$N_0004 2=$N_0003 )
X_U1A           U1A(+=$N_0001 -=$N_0004 V+=$N_0005 V-=$N_0006 OUT=$N_0003 )
V_V3            V3(+=0 -=$N_0006 )
V_V2            V2(+=$N_0005 -=0 )
C_C1            C1(1=0 2=$N_0001 )
R_R5            R5(1=$N_0007 2=$N_0002 )
V_V1            V1(+=$N_0007 -=0 )
.ENDALIASES


**** RESUMING band_pass_filter.cir ****
.probe


.END

**** 03/09/21 11:09:14 *********** Evaluation PSpice (Nov 1999) **************

 * C:\Users\Gustavo\Downloads\UFRN2SEASON\emg_pspice\band_pass_filter.sch


 ****     Diode MODEL PARAMETERS


******************************************************************************




               X_U1A.dx        
          IS  800.000000E-18 
          RS    1            


**** 03/09/21 11:09:14 *********** Evaluation PSpice (Nov 1999) **************

 * C:\Users\Gustavo\Downloads\UFRN2SEASON\emg_pspice\band_pass_filter.sch


 ****     BJT MODEL PARAMETERS


******************************************************************************




               X_U1A.qx        
               PNP             
          IS  800.000000E-18 
          BF  166.7          
          NF    1            
          BR    1            
          NR    1            
          CN    2.2          
           D     .52         


**** 03/09/21 11:09:14 *********** Evaluation PSpice (Nov 1999) **************

 * C:\Users\Gustavo\Downloads\UFRN2SEASON\emg_pspice\band_pass_filter.sch


 ****     SMALL SIGNAL BIAS SOLUTION       TEMPERATURE =   27.000 DEG C


******************************************************************************



 NODE   VOLTAGE     NODE   VOLTAGE     NODE   VOLTAGE     NODE   VOLTAGE


($N_0001) 89.48E-06                   ($N_0002) 44.74E-06                       

($N_0003)-609.3E-06                   ($N_0004)-102.7E-06                       

($N_0005)    5.0000                   ($N_0006)   -5.0000                       

($N_0007)    0.0000                   (X_U1A.6) 7.030E-06                       

(X_U1A.7)    -.0250                   (X_U1A.8)    -.0250                       

(X_U1A.9)    0.0000                   (X_U1A.10)     .6077                      

(X_U1A.11)   -4.9602                  (X_U1A.12)   -4.9604                      

(X_U1A.13)     .5938                  (X_U1A.14)     .5938                      

(X_U1A.53)    3.5000                  (X_U1A.54)   -4.3500                      

(X_U1A.90)    -.4883                  (X_U1A.91)   40.0000                      

(X_U1A.92)  -40.0000                  (X_U1A.99)    0.0000                  




    VOLTAGE SOURCE CURRENTS
    NAME         CURRENT

    V_V3        -1.116E-03
    V_V2        -1.116E-03
    V_V1         4.474E-08
    X_U1A.vb     7.030E-11
    X_U1A.vc     3.500E-12
    X_U1A.ve     4.350E-12
    X_U1A.vlim  -4.883E-04
    X_U1A.vlp   -4.049E-11
    X_U1A.vln   -3.952E-11

    TOTAL POWER DISSIPATION   1.12E-02  WATTS


**** 03/09/21 11:09:14 *********** Evaluation PSpice (Nov 1999) **************

 * C:\Users\Gustavo\Downloads\UFRN2SEASON\emg_pspice\band_pass_filter.sch


 ****     OPERATING POINT INFORMATION      TEMPERATURE =   27.000 DEG C


******************************************************************************






**** VOLTAGE-CONTROLLED CURRENT SOURCES


NAME         X_U1A.ga    X_U1A.gcm 
I-SOURCE     3.615E-08   3.622E-08


**** VOLTAGE-CONTROLLED VOLTAGE SOURCES


NAME         X_U1A.egnd
V-SOURCE     0.000E+00
I-SOURCE     4.884E-04


**** CURRENT-CONTROLLED CURRENT SOURCES


NAME         X_U1A.fb  
I-SOURCE     1.495E-03


**** CURRENT-CONTROLLED VOLTAGE SOURCES


NAME         X_U1A.hlim
V-SOURCE    -4.883E-01
I-SOURCE     9.768E-13


**** DIODES


NAME         X_U1A.dc    X_U1A.de    X_U1A.dlp   X_U1A.dln   X_U1A.dp  
MODEL        X_U1A.dx    X_U1A.dx    X_U1A.dx    X_U1A.dx    X_U1A.dx  
ID          -3.50E-12   -4.35E-12   -4.05E-11   -3.95E-11   -1.00E-11 
VD          -3.50E+00   -4.35E+00   -4.05E+01   -3.95E+01   -1.00E+01 
REQ          1.00E+12    1.00E+12    1.00E+12    1.00E+12    1.00E+12 
CAP          0.00E+00    0.00E+00    0.00E+00    0.00E+00    0.00E+00 


**** BIPOLAR JUNCTION TRANSISTORS


NAME         X_U1A.q1    X_U1A.q2  
MODEL        X_U1A.qx    X_U1A.qx  
IB          -4.50E-08   -4.47E-08 
IC          -7.50E-06   -7.46E-06 
VBE         -5.94E-01   -5.94E-01 
VBC          4.96E+00    4.96E+00 
VCE         -5.55E+00   -5.55E+00 
BETADC       1.67E+02    1.67E+02 
GM           2.90E-04    2.88E-04 
RPI          5.75E+05    5.78E+05 
RX           0.00E+00    0.00E+00 
RO           1.00E+12    1.00E+12 
CBE          0.00E+00    0.00E+00 
CBC          0.00E+00    0.00E+00 
CJS          0.00E+00    0.00E+00 
BETAAC       1.67E+02    1.67E+02 
CBX/CBX2     0.00E+00    0.00E+00 
FT/FT2       4.61E+15    4.59E+15 


**** 03/09/21 11:09:14 *********** Evaluation PSpice (Nov 1999) **************

 * C:\Users\Gustavo\Downloads\UFRN2SEASON\emg_pspice\band_pass_filter.sch


 ****     INITIAL TRANSIENT SOLUTION       TEMPERATURE =   27.000 DEG C


******************************************************************************



 NODE   VOLTAGE     NODE   VOLTAGE     NODE   VOLTAGE     NODE   VOLTAGE


($N_0001) 89.48E-06                   ($N_0002) 44.74E-06                       

($N_0003)-609.9E-06                   ($N_0004)-103.0E-06                       

($N_0005)    5.0000                   ($N_0006)   -5.0000                       

($N_0007)    0.0000                   (X_U1A.6) 35.38E-09                       

(X_U1A.7)-612.4E-06                   (X_U1A.8)-612.4E-06                       

(X_U1A.9)    0.0000                   (X_U1A.10)     .6077                      

(X_U1A.11)   -4.9602                  (X_U1A.12)   -4.9604                      

(X_U1A.13)     .5938                  (X_U1A.14)     .5938                      

(X_U1A.53)    3.5000                  (X_U1A.54)   -4.3500                      

(X_U1A.90)-50.68E-06                  (X_U1A.91)   40.0000                      

(X_U1A.92)  -40.0000                  (X_U1A.99)    0.0000                  




    VOLTAGE SOURCE CURRENTS
    NAME         CURRENT

    V_V3        -1.116E-03
    V_V2        -1.116E-03
    V_V1         4.474E-08
    X_U1A.vb     3.542E-13
    X_U1A.vc     3.501E-12
    X_U1A.ve     4.350E-12
    X_U1A.vlim  -5.068E-08
    X_U1A.vlp   -4.000E-11
    X_U1A.vln   -4.000E-11

    TOTAL POWER DISSIPATION   1.12E-02  WATTS



          JOB CONCLUDED

          TOTAL JOB TIME             .06
