
**** 03/09/21 23:46:38 *********** Evaluation PSpice (Nov 1999) **************

 * C:\Users\Gustavo\Downloads\UFRN2SEASON\emg_pspice\emg2.sch


 ****     CIRCUIT DESCRIPTION


******************************************************************************




* Schematics Version 9.1 - Web Update 1
* Tue Mar 09 23:40:24 2021



** Analysis setup **
.tran 0ns 50ms 0 1m
.OP 
.STMLIB "emg2.stl"


* From [PSPICE NETLIST] section of pspiceev.ini:
.lib "nom.lib"

.INC "emg2.net"

**** INCLUDING emg2.net ****
* Schematics Netlist *



R_R6         0 $N_0001  1k  
R_R7         $N_0002 0  1k  
V_V7         $N_0003 0 DC 5  
X_U1A         $N_0005 $N_0001 $N_0003 $N_0006 $N_0004 LM324
X_U2A         $N_0008 $N_0002 $N_0009 $N_0010 $N_0007 LM324
V_V10         0 $N_0010 DC 5  
V_V9         $N_0009 0 DC 5  
V_V8         0 $N_0006 DC 5  
R_R4         $N_0012 $N_0011  10k  
R_R2         0 $N_0013  10k  
R_R1         $N_0004 $N_0013  10k  
R_R3         $N_0007 $N_0012  10k  
R_R5         $N_0001 $N_0004  100k  
R_R8         $N_0007 $N_0002  100k  
X_U3A         $N_0013 $N_0012 $N_0003 $N_0010 $N_0011 LM324
V_V2         $N_0008 0  
+SIN 0 5m 100 0 0 0
V_V1         $N_0005 0  
+SIN 0 10m 100 0 0 0

**** RESUMING emg2.cir ****
.INC "emg2.als"



**** INCLUDING emg2.als ****
* Schematics Aliases *

.ALIASES
R_R6            R6(1=0 2=$N_0001 )
R_R7            R7(1=$N_0002 2=0 )
V_V7            V7(+=$N_0003 -=0 )
X_U1A           U1A(+=$N_0005 -=$N_0001 V+=$N_0003 V-=$N_0006 OUT=$N_0004 )
X_U2A           U2A(+=$N_0008 -=$N_0002 V+=$N_0009 V-=$N_0010 OUT=$N_0007 )
V_V10           V10(+=0 -=$N_0010 )
V_V9            V9(+=$N_0009 -=0 )
V_V8            V8(+=0 -=$N_0006 )
R_R4            R4(1=$N_0012 2=$N_0011 )
R_R2            R2(1=0 2=$N_0013 )
R_R1            R1(1=$N_0004 2=$N_0013 )
R_R3            R3(1=$N_0007 2=$N_0012 )
R_R5            R5(1=$N_0001 2=$N_0004 )
R_R8            R8(1=$N_0007 2=$N_0002 )
X_U3A           U3A(+=$N_0013 -=$N_0012 V+=$N_0003 V-=$N_0010 OUT=$N_0011 )
V_V2            V2(+=$N_0008 -=0 )
V_V1            V1(+=$N_0005 -=0 )
.ENDALIASES


**** RESUMING emg2.cir ****
.probe


.END

**** 03/09/21 23:46:38 *********** Evaluation PSpice (Nov 1999) **************

 * C:\Users\Gustavo\Downloads\UFRN2SEASON\emg_pspice\emg2.sch


 ****     Diode MODEL PARAMETERS


******************************************************************************




               X_U1A.dx        X_U2A.dx        X_U3A.dx        
          IS  800.000000E-18  800.000000E-18  800.000000E-18 
          RS    1               1               1            


**** 03/09/21 23:46:38 *********** Evaluation PSpice (Nov 1999) **************

 * C:\Users\Gustavo\Downloads\UFRN2SEASON\emg_pspice\emg2.sch


 ****     BJT MODEL PARAMETERS


******************************************************************************




               X_U1A.qx        X_U2A.qx        X_U3A.qx        
               PNP             PNP             PNP             
          IS  800.000000E-18  800.000000E-18  800.000000E-18 
          BF  166.7           166.7           166.7          
          NF    1               1               1            
          BR    1               1               1            
          NR    1               1               1            
          CN    2.2             2.2             2.2          
           D     .52             .52             .52         


**** 03/09/21 23:46:38 *********** Evaluation PSpice (Nov 1999) **************

 * C:\Users\Gustavo\Downloads\UFRN2SEASON\emg_pspice\emg2.sch


 ****     SMALL SIGNAL BIAS SOLUTION       TEMPERATURE =   27.000 DEG C


******************************************************************************



 NODE   VOLTAGE     NODE   VOLTAGE     NODE   VOLTAGE     NODE   VOLTAGE


($N_0001)-192.3E-06                   ($N_0002)-192.3E-06                       

($N_0003)    5.0000                   ($N_0004)    -.0239                       

($N_0005)    0.0000                   ($N_0006)   -5.0000                       

($N_0007)    -.0239                   ($N_0008)    0.0000                       

($N_0009)    5.0000                   ($N_0010)   -5.0000                       

($N_0011)-379.7E-06                   ($N_0012)    -.0119                       

($N_0013)    -.0117                   (X_U1A.6) 4.453E-06                       

(X_U1A.7)    -.0240                   (X_U1A.8)    -.0240                       

(X_U1A.9)    0.0000                   (X_U2A.6) 4.453E-06                       

(X_U2A.7)    -.0240                   (X_U2A.8)    -.0240                       

(X_U2A.9)    0.0000                   (X_U3A.6)-25.30E-09                       

(X_U3A.7)-322.0E-06                   (X_U3A.8)-322.0E-06                       

(X_U3A.9)    0.0000                   (X_U1A.10)     .6076                      

(X_U1A.11)   -4.9602                  (X_U1A.12)   -4.9604                      

(X_U1A.13)     .5937                  (X_U1A.14)     .5937                      

(X_U1A.53)    3.5000                  (X_U1A.54)   -4.3500                      

(X_U1A.90)    -.0014                  (X_U1A.91)   40.0000                      

(X_U1A.92)  -40.0000                  (X_U1A.99)    0.0000                      

(X_U2A.10)     .6076                  (X_U2A.11)   -4.9602                      

(X_U2A.12)   -4.9604                  (X_U2A.13)     .5937                      

(X_U2A.14)     .5937                  (X_U2A.53)    3.5000                      

(X_U2A.54)   -4.3500                  (X_U2A.90)    -.0014                      

(X_U2A.91)   40.0000                  (X_U2A.92)  -40.0000                      

(X_U2A.99)    0.0000                  (X_U3A.10)     .5959                      

(X_U3A.11)   -4.9602                  (X_U3A.12)   -4.9604                      

(X_U3A.13)     .5819                  (X_U3A.14)     .5820                      

(X_U3A.53)    3.5000                  (X_U3A.54)   -4.3500                      

(X_U3A.90)     .0012                  (X_U3A.91)   40.0000                      

(X_U3A.92)  -40.0000                  (X_U3A.99)    0.0000                  




    VOLTAGE SOURCE CURRENTS
    NAME         CURRENT

    V_V7        -2.232E-03
    V_V10       -2.232E-03
    V_V9        -1.116E-03
    V_V8        -1.116E-03
    V_V2         4.474E-08
    V_V1         4.474E-08
    X_U1A.vb     4.453E-11
    X_U1A.vc     3.525E-12
    X_U1A.ve     4.327E-12
    X_U1A.vlim  -1.443E-06
    X_U1A.vlp   -4.000E-11
    X_U1A.vln   -4.000E-11
    X_U2A.vb     4.453E-11
    X_U2A.vc     3.525E-12
    X_U2A.ve     4.327E-12
    X_U2A.vlim  -1.417E-06
    X_U2A.vlp   -4.000E-11
    X_U2A.vln   -4.000E-11
    X_U3A.vb    -2.530E-13
    X_U3A.vc     3.501E-12
    X_U3A.ve     4.351E-12
    X_U3A.vlim   1.154E-06
    X_U3A.vlp   -4.000E-11
    X_U3A.vln   -4.000E-11

    TOTAL POWER DISSIPATION   3.35E-02  WATTS


**** 03/09/21 23:46:38 *********** Evaluation PSpice (Nov 1999) **************

 * C:\Users\Gustavo\Downloads\UFRN2SEASON\emg_pspice\emg2.sch


 ****     OPERATING POINT INFORMATION      TEMPERATURE =   27.000 DEG C


******************************************************************************






**** VOLTAGE-CONTROLLED CURRENT SOURCES


NAME         X_U1A.ga    X_U1A.gcm   X_U2A.ga    X_U2A.gcm   X_U3A.ga  
I-SOURCE     3.617E-08   3.622E-08   3.617E-08   3.622E-08   3.552E-08

NAME         X_U3A.gcm 
I-SOURCE     3.552E-08


**** VOLTAGE-CONTROLLED VOLTAGE SOURCES


NAME         X_U1A.egnd  X_U2A.egnd  X_U3A.egnd
V-SOURCE     0.000E+00   0.000E+00   0.000E+00
I-SOURCE     1.485E-06   1.467E-06  -1.101E-06


**** CURRENT-CONTROLLED CURRENT SOURCES


NAME         X_U1A.fb    X_U2A.fb    X_U3A.fb  
I-SOURCE     9.558E-04   9.558E-04   1.763E-05


**** CURRENT-CONTROLLED VOLTAGE SOURCES


NAME         X_U1A.hlim  X_U2A.hlim  X_U3A.hlim
V-SOURCE    -1.443E-03  -1.417E-03   1.154E-03
I-SOURCE     2.886E-15   2.833E-15  -2.309E-15


**** DIODES


NAME         X_U1A.dc    X_U1A.de    X_U1A.dlp   X_U1A.dln   X_U1A.dp  
MODEL        X_U1A.dx    X_U1A.dx    X_U1A.dx    X_U1A.dx    X_U1A.dx  
ID          -3.52E-12   -4.33E-12   -4.00E-11   -4.00E-11   -1.00E-11 
VD          -3.52E+00   -4.33E+00   -4.00E+01   -4.00E+01   -1.00E+01 
REQ          1.00E+12    1.00E+12    1.00E+12    1.00E+12    1.00E+12 
CAP          0.00E+00    0.00E+00    0.00E+00    0.00E+00    0.00E+00 

NAME         X_U2A.dc    X_U2A.de    X_U2A.dlp   X_U2A.dln   X_U2A.dp  
MODEL        X_U2A.dx    X_U2A.dx    X_U2A.dx    X_U2A.dx    X_U2A.dx  
ID          -3.52E-12   -4.33E-12   -4.00E-11   -4.00E-11   -1.00E-11 
VD          -3.52E+00   -4.33E+00   -4.00E+01   -4.00E+01   -1.00E+01 
REQ          1.00E+12    1.00E+12    1.00E+12    1.00E+12    1.00E+12 
CAP          0.00E+00    0.00E+00    0.00E+00    0.00E+00    0.00E+00 

NAME         X_U3A.dc    X_U3A.de    X_U3A.dlp   X_U3A.dln   X_U3A.dp  
MODEL        X_U3A.dx    X_U3A.dx    X_U3A.dx    X_U3A.dx    X_U3A.dx  
ID          -3.50E-12   -4.35E-12   -4.00E-11   -4.00E-11   -1.00E-11 
VD          -3.50E+00   -4.35E+00   -4.00E+01   -4.00E+01   -1.00E+01 
REQ          1.00E+12    1.00E+12    1.00E+12    1.00E+12    1.00E+12 
CAP          0.00E+00    0.00E+00    0.00E+00    0.00E+00    0.00E+00 


**** BIPOLAR JUNCTION TRANSISTORS


NAME         X_U1A.q1    X_U1A.q2    X_U2A.q1    X_U2A.q2    X_U3A.q1  
MODEL        X_U1A.qx    X_U1A.qx    X_U2A.qx    X_U2A.qx    X_U3A.qx  
IB          -4.50E-08   -4.47E-08   -4.50E-08   -4.47E-08   -4.50E-08 
IC          -7.50E-06   -7.46E-06   -7.50E-06   -7.46E-06   -7.50E-06 
VBE         -5.94E-01   -5.94E-01   -5.94E-01   -5.94E-01   -5.94E-01 
VBC          4.96E+00    4.96E+00    4.96E+00    4.96E+00    4.95E+00 
VCE         -5.55E+00   -5.55E+00   -5.55E+00   -5.55E+00   -5.54E+00 
BETADC       1.67E+02    1.67E+02    1.67E+02    1.67E+02    1.67E+02 
GM           2.90E-04    2.88E-04    2.90E-04    2.88E-04    2.90E-04 
RPI          5.75E+05    5.78E+05    5.75E+05    5.78E+05    5.75E+05 
RX           0.00E+00    0.00E+00    0.00E+00    0.00E+00    0.00E+00 
RO           1.00E+12    1.00E+12    1.00E+12    1.00E+12    1.00E+12 
CBE          0.00E+00    0.00E+00    0.00E+00    0.00E+00    0.00E+00 
CBC          0.00E+00    0.00E+00    0.00E+00    0.00E+00    0.00E+00 
CJS          0.00E+00    0.00E+00    0.00E+00    0.00E+00    0.00E+00 
BETAAC       1.67E+02    1.67E+02    1.67E+02    1.67E+02    1.67E+02 
CBX/CBX2     0.00E+00    0.00E+00    0.00E+00    0.00E+00    0.00E+00 
FT/FT2       4.61E+15    4.59E+15    4.61E+15    4.59E+15    4.61E+15 



NAME         X_U3A.q2  
MODEL        X_U3A.qx  
IB          -4.47E-08 
IC          -7.46E-06 
VBE         -5.94E-01 
VBC          4.95E+00 
VCE         -5.54E+00 
BETADC       1.67E+02 
GM           2.88E-04 
RPI          5.78E+05 
RX           0.00E+00 
RO           1.00E+12 
CBE          0.00E+00 
CBC          0.00E+00 
CJS          0.00E+00 
BETAAC       1.67E+02 
CBX/CBX2     0.00E+00 
FT/FT2       4.59E+15 


**** 03/09/21 23:46:38 *********** Evaluation PSpice (Nov 1999) **************

 * C:\Users\Gustavo\Downloads\UFRN2SEASON\emg_pspice\emg2.sch


 ****     INITIAL TRANSIENT SOLUTION       TEMPERATURE =   27.000 DEG C


******************************************************************************



 NODE   VOLTAGE     NODE   VOLTAGE     NODE   VOLTAGE     NODE   VOLTAGE


($N_0001)-192.3E-06                   ($N_0002)-192.3E-06                       

($N_0003)    5.0000                   ($N_0004)    -.0239                       

($N_0005)    0.0000                   ($N_0006)   -5.0000                       

($N_0007)    -.0239                   ($N_0008)    0.0000                       

($N_0009)    5.0000                   ($N_0010)   -5.0000                       

($N_0011)-379.7E-06                   ($N_0012)    -.0119                       

($N_0013)    -.0117                   (X_U1A.6) 4.453E-06                       

(X_U1A.7)    -.0240                   (X_U1A.8)    -.0240                       

(X_U1A.9)    0.0000                   (X_U2A.6) 4.453E-06                       

(X_U2A.7)    -.0240                   (X_U2A.8)    -.0240                       

(X_U2A.9)    0.0000                   (X_U3A.6)-25.36E-09                       

(X_U3A.7)-322.0E-06                   (X_U3A.8)-322.0E-06                       

(X_U3A.9)    0.0000                   (X_U1A.10)     .6076                      

(X_U1A.11)   -4.9602                  (X_U1A.12)   -4.9604                      

(X_U1A.13)     .5937                  (X_U1A.14)     .5937                      

(X_U1A.53)    3.5000                  (X_U1A.54)   -4.3500                      

(X_U1A.90)    -.0015                  (X_U1A.91)   40.0000                      

(X_U1A.92)  -40.0000                  (X_U1A.99)    0.0000                      

(X_U2A.10)     .6076                  (X_U2A.11)   -4.9602                      

(X_U2A.12)   -4.9604                  (X_U2A.13)     .5937                      

(X_U2A.14)     .5937                  (X_U2A.53)    3.5000                      

(X_U2A.54)   -4.3500                  (X_U2A.90)    -.0014                      

(X_U2A.91)   40.0000                  (X_U2A.92)  -40.0000                      

(X_U2A.99)    0.0000                  (X_U3A.10)     .5959                      

(X_U3A.11)   -4.9602                  (X_U3A.12)   -4.9604                      

(X_U3A.13)     .5819                  (X_U3A.14)     .5820                      

(X_U3A.53)    3.5000                  (X_U3A.54)   -4.3500                      

(X_U3A.90)     .0012                  (X_U3A.91)   40.0000                      

(X_U3A.92)  -40.0000                  (X_U3A.99)    0.0000                  




    VOLTAGE SOURCE CURRENTS
    NAME         CURRENT

    V_V7        -2.232E-03
    V_V10       -2.232E-03
    V_V9        -1.116E-03
    V_V8        -1.116E-03
    V_V2         4.474E-08
    V_V1         4.474E-08
    X_U1A.vb     4.453E-11
    X_U1A.vc     3.525E-12
    X_U1A.ve     4.327E-12
    X_U1A.vlim  -1.455E-06
    X_U1A.vlp   -4.000E-11
    X_U1A.vln   -4.000E-11
    X_U2A.vb     4.453E-11
    X_U2A.vc     3.525E-12
    X_U2A.ve     4.327E-12
    X_U2A.vlim  -1.436E-06
    X_U2A.vlp   -4.000E-11
    X_U2A.vln   -4.000E-11
    X_U3A.vb    -2.534E-13
    X_U3A.vc     3.501E-12
    X_U3A.ve     4.351E-12
    X_U3A.vlim   1.154E-06
    X_U3A.vlp   -4.000E-11
    X_U3A.vln   -4.000E-11

    TOTAL POWER DISSIPATION   3.35E-02  WATTS



          JOB CONCLUDED

          TOTAL JOB TIME             .03
