
**** 03/12/21 12:49:23 *********** Evaluation PSpice (Nov 1999) **************

 * C:\Users\Gustavo\Downloads\UFRN2SEASON\emg_pspice\emg_circut.sch


 ****     CIRCUIT DESCRIPTION


******************************************************************************




* Schematics Version 9.1 - Web Update 1
* Wed Mar 10 00:00:23 2021



** Analysis setup **
.tran 0ns 50ms 0 1ms
.OP 
.STMLIB "emg_circut.stl"


* From [PSPICE NETLIST] section of pspiceev.ini:
.lib "nom.lib"

.INC "emg_circut.net"

**** INCLUDING emg_circut.net ****
* Schematics Netlist *

.EXTERNAL INPUT +5V
.EXTERNAL INPUT -5V


** AutoGenerated Stimuli from Hierarchical ports **
U_AUTO_STM_113  STIM( 1, 0 ) $G_DPWR $G_DGND +5V IO_STM STIMULUS=+5V
U_AUTO_STM_114  STIM( 1, 0 ) $G_DPWR $G_DGND -5V IO_STM STIMULUS=-5V


V_V8         +5V 0 DC 5  
V_V9         0 -5V DC 5  
R_R6         $N_0002 $N_0001  10k  
R_R7         $N_0001 0  18k  
C_C1         $N_0003 $N_0004  470n  
R_R8         0 $N_0005  15k  
C_C2         $N_0004 $N_0005  470n  
R_R5         $N_0002 $N_0004  15k  
V_V11         $N_0003 0  
+SIN 0 0.5 100 0 0 0
C_C6         $N_0006 $N_0007  330n  
R_R26         $N_0008 $N_0007  10k  
X_U6A         $N_0006 $N_0008 $N_0009 $N_0010 $N_0007 LM324
V_V12         0 $N_0010 DC 5  
V_V13         $N_0009 0 DC 5  
C_C7         0 $N_0006  330n  
R_R27         $N_0011 $N_0006  1k  
R_R25         0 $N_0008  18k  
X_U2A         $N_0005 $N_0001 +5V -5V $N_0002 LM324
R_R28         $N_0002 $N_0011  1k  

**** RESUMING emg_circut.cir ****
.INC "emg_circut.als"



**** INCLUDING emg_circut.als ****
* Schematics Aliases *

.ALIASES
V_V8            V8(+=+5V -=0 )
V_V9            V9(+=0 -=-5V )
R_R6            R6(1=$N_0002 2=$N_0001 )
R_R7            R7(1=$N_0001 2=0 )
C_C1            C1(1=$N_0003 2=$N_0004 )
R_R8            R8(1=0 2=$N_0005 )
C_C2            C2(1=$N_0004 2=$N_0005 )
R_R5            R5(1=$N_0002 2=$N_0004 )
V_V11           V11(+=$N_0003 -=0 )
C_C6            C6(1=$N_0006 2=$N_0007 )
R_R26           R26(1=$N_0008 2=$N_0007 )
X_U6A           U6A(+=$N_0006 -=$N_0008 V+=$N_0009 V-=$N_0010 OUT=$N_0007 )
V_V12           V12(+=0 -=$N_0010 )
V_V13           V13(+=$N_0009 -=0 )
C_C7            C7(1=0 2=$N_0006 )
R_R27           R27(1=$N_0011 2=$N_0006 )
R_R25           R25(1=0 2=$N_0008 )
X_U2A           U2A(+=$N_0005 -=$N_0001 V+=+5V V-=-5V OUT=$N_0002 )
R_R28           R28(1=$N_0002 2=$N_0011 )
_    _(+5V=+5V)
_    _(-5V=-5V)
.ENDALIASES


**** RESUMING emg_circut.cir ****
.probe


.END


**** Generated AtoD and DtoA Interfaces ****

*
* Analog/Digital interface for node +5V
*
* Moving U_AUTO_STM_113:OUT1 from analog node +5V to new digital node +5V$DtoA
X$+5V_DtoA1
+ +5V$DtoA
+ +5V
+ $G_DPWR
+ $G_DGND
+ DtoA_STM
+       PARAMS: DRVH=   0      DRVL=   0      CAPACITANCE=   0     
*
* Analog/Digital interface for node -5V
*
* Moving U_AUTO_STM_114:OUT1 from analog node -5V to new digital node -5V$DtoA
X$-5V_DtoA1
+ -5V$DtoA
+ -5V
+ $G_DPWR
+ $G_DGND
+ DtoA_STM
+       PARAMS: DRVH=   0      DRVL=   0      CAPACITANCE=   0     
*
* Analog/Digital interface power supply subcircuits
*

X$DIGIFPWR 0 DIGIFPWR

* "C:\Users\Gustavo\Downloads\UFRN2SEASON\emg_pspice\emg_circut.stl" written on Sun 17:10:18 03/07/21
* by Schematic Editor, Version 9.1
.STIMULUS -5V STIM (1, 1)
+   +0s Z
.STIMULUS +5V STIM (1, 1)
+   +0s Z
.STIMULUS +5V STIM (1, 1)
+   +0s Z

**** 03/12/21 12:49:23 *********** Evaluation PSpice (Nov 1999) **************

 * C:\Users\Gustavo\Downloads\UFRN2SEASON\emg_pspice\emg_circut.sch


 ****     Diode MODEL PARAMETERS


******************************************************************************




               X_U6A.dx        X_U2A.dx        
          IS  800.000000E-18  800.000000E-18 
          RS    1               1            


**** 03/12/21 12:49:23 *********** Evaluation PSpice (Nov 1999) **************

 * C:\Users\Gustavo\Downloads\UFRN2SEASON\emg_pspice\emg_circut.sch


 ****     BJT MODEL PARAMETERS


******************************************************************************




               X_U6A.qx        X_U2A.qx        
               PNP             PNP             
          IS  800.000000E-18  800.000000E-18 
          BF  166.7           166.7          
          NF    1               1            
          BR    1               1            
          NR    1               1            
          CN    2.2             2.2          
           D     .52             .52         


**** 03/12/21 12:49:23 *********** Evaluation PSpice (Nov 1999) **************

 * C:\Users\Gustavo\Downloads\UFRN2SEASON\emg_pspice\emg_circut.sch


 ****     Digital Input MODEL PARAMETERS


******************************************************************************




               DINSTM          
        FILE DSO_DTOA        
      FORMAT    6            
    TIMESTEP  100.000000E-12 
      S0NAME 0               
       S0TSW  500.000000E-12 
       S0RLO     .5          
       S0RHI    1.000000E+03 
      S1NAME 1               
       S1TSW  500.000000E-12 
       S1RLO    1.000000E+03 
       S1RHI     .5          
      S2NAME X               
       S2TSW  500.000000E-12 
       S2RLO     .429        
       S2RHI    1.16         
      S3NAME R               
       S3TSW  500.000000E-12 
       S3RLO     .429        
       S3RHI    1.16         
      S4NAME F               
       S4TSW  500.000000E-12 
       S4RLO     .429        
       S4RHI    1.16         
      S5NAME Z               
       S5TSW  500.000000E-12 
       S5RLO    1.000000E+06 
       S5RHI    1.000000E+06 


**** 03/12/21 12:49:23 *********** Evaluation PSpice (Nov 1999) **************

 * C:\Users\Gustavo\Downloads\UFRN2SEASON\emg_pspice\emg_circut.sch


 ****     Digital IO  MODEL PARAMETERS


******************************************************************************




               IO_STM          
        DRVL    0            
        DRVH    0            
       DtoA1 DtoA_STM        
       DtoA2 DtoA_STM        
       DtoA3 DtoA_STM        
       DtoA4 DtoA_STM        
       TPWRT  100.000000E+03 


**** 03/12/21 12:49:23 *********** Evaluation PSpice (Nov 1999) **************

 * C:\Users\Gustavo\Downloads\UFRN2SEASON\emg_pspice\emg_circut.sch


 ****     SMALL SIGNAL BIAS SOLUTION       TEMPERATURE =   27.000 DEG C


******************************************************************************



 NODE   VOLTAGE     NODE   VOLTAGE     NODE   VOLTAGE     NODE   VOLTAGE


(  +5V)    5.0000  (  -5V)   -5.0000  ($G_DGND)    0.0000                       

($G_DPWR)    5.0000                   ($N_0001) 478.4E-06                       

($N_0002) 294.6E-06                   ($N_0003)    0.0000                       

($N_0004) 294.6E-06                   ($N_0005) 671.1E-06                       

($N_0006) 384.1E-06                   ($N_0007)-151.8E-06                       

($N_0008) 191.4E-06                   ($N_0009)    5.0000                       

($N_0010)   -5.0000                   ($N_0011) 339.3E-06                       

(X_U2A.6)-135.2E-09                   (X_U2A.7) 291.4E-06                       

(X_U2A.8) 291.4E-06                   (X_U2A.9)    0.0000                       

(X_U6A.6)-51.34E-09                   (X_U6A.7)-153.5E-06                       

(X_U6A.8)-153.5E-06                   (X_U6A.9)    0.0000                       

(X_U2A.10)     .6083                  (X_U2A.11)   -4.9602                      

(X_U2A.12)   -4.9604                  (X_U2A.13)     .5943                      

(X_U2A.14)     .5944                  (X_U2A.53)    3.5000                      

(X_U2A.54)   -4.3500                  (X_U2A.90)-56.31E-06                      

(X_U2A.91)   40.0000                  (X_U2A.92)  -40.0000                      

(X_U2A.99)    0.0000                  (X_U6A.10)     .6080                      

(X_U6A.11)   -4.9602                  (X_U6A.12)   -4.9604                      

(X_U6A.13)     .5941                  (X_U6A.14)     .5941                      

(X_U6A.53)    3.5000                  (X_U6A.54)   -4.3500                      

(X_U6A.90)-40.71E-06                  (X_U6A.91)   40.0000                      

(X_U6A.92)  -40.0000                  (X_U6A.99)    0.0000                  



 DGTL NODE : STATE  DGTL NODE : STATE  DGTL NODE : STATE  DGTL NODE : STATE


(-5V$DtoA) : Z     (+5V$DtoA) : Z     




    VOLTAGE SOURCE CURRENTS
    NAME         CURRENT

    V_V8        -1.121E-03
    V_V9        -1.131E-03
    V_V11        0.000E+00
    V_V12       -1.116E-03
    V_V13       -1.116E-03
    X_U6A.vb    -5.134E-13
    X_U6A.vc     3.501E-12
    X_U6A.ve     4.351E-12
    X_U6A.vlim  -4.071E-08
    X_U6A.vlp   -4.000E-11
    X_U6A.vln   -4.000E-11
    X_U2A.vb    -1.352E-12
    X_U2A.vc     3.501E-12
    X_U2A.ve     4.351E-12
    X_U2A.vlim  -5.631E-08
    X_U2A.vlp   -4.000E-11
    X_U2A.vln   -4.000E-11
    X$DIGIFPWR.VDPWR  -1.500E-05
    X$DIGIFPWR.VDGND  -1.500E-05

    TOTAL POWER DISSIPATION   2.25E-02  WATTS


**** 03/12/21 12:49:23 *********** Evaluation PSpice (Nov 1999) **************

 * C:\Users\Gustavo\Downloads\UFRN2SEASON\emg_pspice\emg_circut.sch


 ****     OPERATING POINT INFORMATION      TEMPERATURE =   27.000 DEG C


******************************************************************************






**** VOLTAGE-CONTROLLED CURRENT SOURCES


NAME         X_U6A.ga    X_U6A.gcm   X_U2A.ga    X_U2A.gcm 
I-SOURCE     3.624E-08   3.624E-08   3.626E-08   3.626E-08


**** VOLTAGE-CONTROLLED VOLTAGE SOURCES


NAME         X_U6A.egnd  X_U2A.egnd
V-SOURCE     0.000E+00   0.000E+00
I-SOURCE     6.791E-08   8.833E-08


**** CURRENT-CONTROLLED CURRENT SOURCES


NAME         X_U6A.fb    X_U2A.fb  
I-SOURCE     1.334E-06  -5.789E-06


**** CURRENT-CONTROLLED VOLTAGE SOURCES


NAME         X_U6A.hlim  X_U2A.hlim
V-SOURCE    -4.071E-05  -5.631E-05
I-SOURCE     8.142E-17   1.126E-16


**** DIODES


NAME         X_U6A.dc    X_U6A.de    X_U6A.dlp   X_U6A.dln   X_U6A.dp  
MODEL        X_U6A.dx    X_U6A.dx    X_U6A.dx    X_U6A.dx    X_U6A.dx  
ID          -3.50E-12   -4.35E-12   -4.00E-11   -4.00E-11   -1.00E-11 
VD          -3.50E+00   -4.35E+00   -4.00E+01   -4.00E+01   -1.00E+01 
REQ          1.00E+12    1.00E+12    1.00E+12    1.00E+12    1.00E+12 
CAP          0.00E+00    0.00E+00    0.00E+00    0.00E+00    0.00E+00 

NAME         X_U2A.dc    X_U2A.de    X_U2A.dlp   X_U2A.dln   X_U2A.dp  
MODEL        X_U2A.dx    X_U2A.dx    X_U2A.dx    X_U2A.dx    X_U2A.dx  
ID          -3.50E-12   -4.35E-12   -4.00E-11   -4.00E-11   -1.00E-11 
VD          -3.50E+00   -4.35E+00   -4.00E+01   -4.00E+01   -1.00E+01 
REQ          1.00E+12    1.00E+12    1.00E+12    1.00E+12    1.00E+12 
CAP          0.00E+00    0.00E+00    0.00E+00    0.00E+00    0.00E+00 


**** BIPOLAR JUNCTION TRANSISTORS


NAME         X_U6A.q1    X_U6A.q2    X_U2A.q1    X_U2A.q2  
MODEL        X_U6A.qx    X_U6A.qx    X_U2A.qx    X_U2A.qx  
IB          -4.50E-08   -4.47E-08   -4.50E-08   -4.47E-08 
IC          -7.50E-06   -7.46E-06   -7.50E-06   -7.46E-06 
VBE         -5.94E-01   -5.94E-01   -5.94E-01   -5.94E-01 
VBC          4.96E+00    4.96E+00    4.96E+00    4.96E+00 
VCE         -5.55E+00   -5.55E+00   -5.55E+00   -5.55E+00 
BETADC       1.67E+02    1.67E+02    1.67E+02    1.67E+02 
GM           2.90E-04    2.88E-04    2.90E-04    2.88E-04 
RPI          5.75E+05    5.78E+05    5.75E+05    5.78E+05 
RX           0.00E+00    0.00E+00    0.00E+00    0.00E+00 
RO           1.00E+12    1.00E+12    1.00E+12    1.00E+12 
CBE          0.00E+00    0.00E+00    0.00E+00    0.00E+00 
CBC          0.00E+00    0.00E+00    0.00E+00    0.00E+00 
CJS          0.00E+00    0.00E+00    0.00E+00    0.00E+00 
BETAAC       1.67E+02    1.67E+02    1.67E+02    1.67E+02 
CBX/CBX2     0.00E+00    0.00E+00    0.00E+00    0.00E+00 
FT/FT2       4.61E+15    4.59E+15    4.61E+15    4.59E+15 


**** 03/12/21 12:49:23 *********** Evaluation PSpice (Nov 1999) **************

 * C:\Users\Gustavo\Downloads\UFRN2SEASON\emg_pspice\emg_circut.sch


 ****     INITIAL TRANSIENT SOLUTION       TEMPERATURE =   27.000 DEG C


******************************************************************************



 NODE   VOLTAGE     NODE   VOLTAGE     NODE   VOLTAGE     NODE   VOLTAGE


(  +5V)    5.0000  (  -5V)   -5.0000  ($G_DGND)    0.0000                       

($G_DPWR)    5.0000                   ($N_0001) 478.4E-06                       

($N_0002) 294.6E-06                   ($N_0003)    0.0000                       

($N_0004) 294.6E-06                   ($N_0005) 671.1E-06                       

($N_0006) 384.1E-06                   ($N_0007)-151.8E-06                       

($N_0008) 191.4E-06                   ($N_0009)    5.0000                       

($N_0010)   -5.0000                   ($N_0011) 339.3E-06                       

(X_U2A.6)-135.1E-09                   (X_U2A.7) 291.4E-06                       

(X_U2A.8) 291.4E-06                   (X_U2A.9)    0.0000                       

(X_U6A.6)-51.33E-09                   (X_U6A.7)-153.5E-06                       

(X_U6A.8)-153.5E-06                   (X_U6A.9)    0.0000                       

(X_U2A.10)     .6083                  (X_U2A.11)   -4.9602                      

(X_U2A.12)   -4.9604                  (X_U2A.13)     .5943                      

(X_U2A.14)     .5944                  (X_U2A.53)    3.5000                      

(X_U2A.54)   -4.3500                  (X_U2A.90)-63.12E-06                      

(X_U2A.91)   40.0000                  (X_U2A.92)  -40.0000                      

(X_U2A.99)    0.0000                  (X_U6A.10)     .6080                      

(X_U6A.11)   -4.9602                  (X_U6A.12)   -4.9604                      

(X_U6A.13)     .5941                  (X_U6A.14)     .5941                      

(X_U6A.53)    3.5000                  (X_U6A.54)   -4.3500                      

(X_U6A.90)-34.32E-06                  (X_U6A.91)   40.0000                      

(X_U6A.92)  -40.0000                  (X_U6A.99)    0.0000                  



 DGTL NODE : STATE  DGTL NODE : STATE  DGTL NODE : STATE  DGTL NODE : STATE


(-5V$DtoA) : Z     (+5V$DtoA) : Z     




    VOLTAGE SOURCE CURRENTS
    NAME         CURRENT

    V_V8        -1.121E-03
    V_V9        -1.131E-03
    V_V11        0.000E+00
    V_V12       -1.116E-03
    V_V13       -1.116E-03
    X_U6A.vb    -5.129E-13
    X_U6A.vc     3.501E-12
    X_U6A.ve     4.351E-12
    X_U6A.vlim  -3.432E-08
    X_U6A.vlp   -4.000E-11
    X_U6A.vln   -4.000E-11
    X_U2A.vb    -1.351E-12
    X_U2A.vc     3.501E-12
    X_U2A.ve     4.351E-12
    X_U2A.vlim  -6.312E-08
    X_U2A.vlp   -4.000E-11
    X_U2A.vln   -4.000E-11
    X$DIGIFPWR.VDPWR  -1.500E-05
    X$DIGIFPWR.VDGND  -1.500E-05

    TOTAL POWER DISSIPATION   2.25E-02  WATTS



          JOB CONCLUDED

          TOTAL JOB TIME             .05
