
**** 03/12/21 12:38:30 *********** Evaluation PSpice (Nov 1999) **************

 * C:\Users\Gustavo\Downloads\UFRN2SEASON\emg_pspice\non_inverter_amp_emg.sch


 ****     CIRCUIT DESCRIPTION


******************************************************************************




* Schematics Version 9.1 - Web Update 1
* Fri Mar 12 12:37:15 2021



** Analysis setup **
.tran 0ns 50ms 0 1ms
.OP 


* From [PSPICE NETLIST] section of pspiceev.ini:
.lib "nom.lib"

.INC "non_inverter_amp_emg.net"

**** INCLUDING non_inverter_amp_emg.net ****
* Schematics Netlist *

.EXTERNAL OUTPUT +5V
.EXTERNAL OUTPUT -5V


R_R1         0 $N_0001  1k  
V_V2         +5V 0 DC 5  
V_V3         0 -5V DC 5  
V_V1         $N_0002 0  
+SIN 0 10m 200 0 0 0
R_R3         $N_0004 $N_0003  47k  
R_R2         $N_0003 $N_0001  100k  
X_U1A         $N_0002 $N_0001 +5V -5V $N_0004 LM324
R_R4         $N_0005 0  18k  
C_C1         0 $N_0005  10u  
D_D2         $N_0004 $N_0005 D1N4002 

**** RESUMING non_inverter_amp_emg.cir ****
.INC "non_inverter_amp_emg.als"



**** INCLUDING non_inverter_amp_emg.als ****
* Schematics Aliases *

.ALIASES
R_R1            R1(1=0 2=$N_0001 )
V_V2            V2(+=+5V -=0 )
V_V3            V3(+=0 -=-5V )
V_V1            V1(+=$N_0002 -=0 )
R_R3            R3(1=$N_0004 2=$N_0003 )
R_R2            R2(1=$N_0003 2=$N_0001 )
X_U1A           U1A(+=$N_0002 -=$N_0001 V+=+5V V-=-5V OUT=$N_0004 )
R_R4            R4(1=$N_0005 2=0 )
C_C1            C1(1=0 2=$N_0005 )
D_D2            D2(1=$N_0004 2=$N_0005 )
_    _(+5V=+5V)
_    _(-5V=-5V)
.ENDALIASES


**** RESUMING non_inverter_amp_emg.cir ****
.probe


.END

**** 03/12/21 12:38:30 *********** Evaluation PSpice (Nov 1999) **************

 * C:\Users\Gustavo\Downloads\UFRN2SEASON\emg_pspice\non_inverter_amp_emg.sch


 ****     Diode MODEL PARAMETERS


******************************************************************************




               D1N4002         X_U1A.dx        
          IS   14.110000E-09  800.000000E-18 
           N    1.984                        
         ISR  100.000000E-12                 
         IKF   94.81                         
          BV  100.1                          
         IBV   10                            
          RS     .03389         1            
          TT    4.761000E-06                 
         CJO   51.170000E-12                 
          VJ     .3905                       
           M     .2762                       


**** 03/12/21 12:38:30 *********** Evaluation PSpice (Nov 1999) **************

 * C:\Users\Gustavo\Downloads\UFRN2SEASON\emg_pspice\non_inverter_amp_emg.sch


 ****     BJT MODEL PARAMETERS


******************************************************************************




               X_U1A.qx        
               PNP             
          IS  800.000000E-18 
          BF  166.7          
          NF    1            
          BR    1            
          NR    1            
          CN    2.2          
           D     .52         


**** 03/12/21 12:38:30 *********** Evaluation PSpice (Nov 1999) **************

 * C:\Users\Gustavo\Downloads\UFRN2SEASON\emg_pspice\non_inverter_amp_emg.sch


 ****     SMALL SIGNAL BIAS SOLUTION       TEMPERATURE =   27.000 DEG C


******************************************************************************



 NODE   VOLTAGE     NODE   VOLTAGE     NODE   VOLTAGE     NODE   VOLTAGE


(  +5V)    5.0000  (  -5V)   -5.0000  ($N_0001)-191.8E-06                       

($N_0002)    0.0000                   ($N_0003)    -.0239                       

($N_0004)    -.0350                   ($N_0005)-126.1E-06                       

(X_U1A.6) 13.52E-06                   (X_U1A.7)    -.0594                       

(X_U1A.8)    -.0594                   (X_U1A.9)    0.0000                       

(X_U1A.10)     .6076                  (X_U1A.11)   -4.9602                      

(X_U1A.12)   -4.9604                  (X_U1A.13)     .5937                      

(X_U1A.14)     .5937                  (X_U1A.53)    3.5000                      

(X_U1A.54)   -4.3500                  (X_U1A.90)    -.4885                      

(X_U1A.91)   40.0000                  (X_U1A.92)  -40.0000                      

(X_U1A.99)    0.0000                  




    VOLTAGE SOURCE CURRENTS
    NAME         CURRENT

    V_V2        -1.116E-03
    V_V3        -1.116E-03
    V_V1         4.474E-08
    X_U1A.vb     1.352E-10
    X_U1A.vc     3.535E-12
    X_U1A.ve     4.317E-12
    X_U1A.vlim  -4.885E-04
    X_U1A.vlp   -4.049E-11
    X_U1A.vln   -3.952E-11

    TOTAL POWER DISSIPATION   1.12E-02  WATTS


**** 03/12/21 12:38:30 *********** Evaluation PSpice (Nov 1999) **************

 * C:\Users\Gustavo\Downloads\UFRN2SEASON\emg_pspice\non_inverter_amp_emg.sch


 ****     OPERATING POINT INFORMATION      TEMPERATURE =   27.000 DEG C


******************************************************************************






**** VOLTAGE-CONTROLLED CURRENT SOURCES


NAME         X_U1A.ga    X_U1A.gcm 
I-SOURCE     3.608E-08   3.622E-08


**** VOLTAGE-CONTROLLED VOLTAGE SOURCES


NAME         X_U1A.egnd
V-SOURCE     0.000E+00
I-SOURCE     4.886E-04


**** CURRENT-CONTROLLED CURRENT SOURCES


NAME         X_U1A.fb  
I-SOURCE     2.858E-03


**** CURRENT-CONTROLLED VOLTAGE SOURCES


NAME         X_U1A.hlim
V-SOURCE    -4.885E-01
I-SOURCE     9.771E-13


**** DIODES


NAME         D_D2        X_U1A.dc    X_U1A.de    X_U1A.dlp   X_U1A.dln 
MODEL        D1N4002     X_U1A.dx    X_U1A.dx    X_U1A.dx    X_U1A.dx  
ID          -7.01E-09   -3.54E-12   -4.32E-12   -4.05E-11   -3.95E-11 
VD          -3.49E-02   -3.54E+00   -4.32E+00   -4.05E+01   -3.95E+01 
REQ          7.12E+06    1.00E+12    1.00E+12    1.00E+12    1.00E+12 
CAP          5.06E-11    0.00E+00    0.00E+00    0.00E+00    0.00E+00 

NAME         X_U1A.dp  
MODEL        X_U1A.dx  
ID          -1.00E-11 
VD          -1.00E+01 
REQ          1.00E+12 
CAP          0.00E+00 


**** BIPOLAR JUNCTION TRANSISTORS


NAME         X_U1A.q1    X_U1A.q2  
MODEL        X_U1A.qx    X_U1A.qx  
IB          -4.50E-08   -4.47E-08 
IC          -7.50E-06   -7.46E-06 
VBE         -5.94E-01   -5.94E-01 
VBC          4.96E+00    4.96E+00 
VCE         -5.55E+00   -5.55E+00 
BETADC       1.67E+02    1.67E+02 
GM           2.90E-04    2.88E-04 
RPI          5.75E+05    5.78E+05 
RX           0.00E+00    0.00E+00 
RO           1.00E+12    1.00E+12 
CBE          0.00E+00    0.00E+00 
CBC          0.00E+00    0.00E+00 
CJS          0.00E+00    0.00E+00 
BETAAC       1.67E+02    1.67E+02 
CBX/CBX2     0.00E+00    0.00E+00 
FT/FT2       4.61E+15    4.59E+15 


**** 03/12/21 12:38:30 *********** Evaluation PSpice (Nov 1999) **************

 * C:\Users\Gustavo\Downloads\UFRN2SEASON\emg_pspice\non_inverter_amp_emg.sch


 ****     INITIAL TRANSIENT SOLUTION       TEMPERATURE =   27.000 DEG C


******************************************************************************



 NODE   VOLTAGE     NODE   VOLTAGE     NODE   VOLTAGE     NODE   VOLTAGE


(  +5V)    5.0000  (  -5V)   -5.0000  ($N_0001)-192.2E-06                       

($N_0002)    0.0000                   ($N_0003)    -.0239                       

($N_0004)    -.0350                   ($N_0005)-126.3E-06                       

(X_U1A.6) 6.536E-06                   (X_U1A.7)    -.0351                       

(X_U1A.8)    -.0351                   (X_U1A.9)    0.0000                       

(X_U1A.10)     .6076                  (X_U1A.11)   -4.9602                      

(X_U1A.12)   -4.9604                  (X_U1A.13)     .5937                      

(X_U1A.14)     .5937                  (X_U1A.53)    3.5000                      

(X_U1A.54)   -4.3500                  (X_U1A.90)-244.1E-06                      

(X_U1A.91)   40.0000                  (X_U1A.92)  -40.0000                      

(X_U1A.99)    0.0000                  




    VOLTAGE SOURCE CURRENTS
    NAME         CURRENT

    V_V2        -1.116E-03
    V_V3        -1.116E-03
    V_V1         4.474E-08
    X_U1A.vb     6.536E-11
    X_U1A.vc     3.536E-12
    X_U1A.ve     4.317E-12
    X_U1A.vlim  -2.441E-07
    X_U1A.vlp   -4.000E-11
    X_U1A.vln   -4.000E-11

    TOTAL POWER DISSIPATION   1.12E-02  WATTS



          JOB CONCLUDED

          TOTAL JOB TIME             .05
